date Tue Mar 30 06:24:49.560 pm 2021
base hex  timestamps absolute
internal events logged
// version 10.0.1
Begin TriggerBlock Tue Mar 30 06:24:49.560 pm 2021
   0.000000 Start of measurement
   0.000174 1  104             Tx   d 4 01 00 00 00  Length = 168000 BitCount = 87 ID = 260
   0.200000    Piston       := 1
   0.200174 1  104             Tx   d 4 01 00 00 00  Length = 168000 BitCount = 87 ID = 260
   0.400000    Piston       := 2
   0.400174 1  104             Tx   d 4 01 00 00 00  Length = 168000 BitCount = 87 ID = 260
   0.600000    Piston       := 3
   0.600174 1  104             Tx   d 4 01 00 00 00  Length = 168000 BitCount = 87 ID = 260
   0.800000    Piston       := 4
   0.800174 1  104             Tx   d 4 01 00 00 00  Length = 168000 BitCount = 87 ID = 260
   1.000000    Piston       := 5
   1.000000 1  Statistic: D 5 R 0 XD 0 XR 0 E 0 O 0 B 0.09%
   1.000174 1  104             Tx   d 4 01 00 00 00  Length = 168000 BitCount = 87 ID = 260
   1.200000    Piston       := 6
   1.200174 1  104             Tx   d 4 01 00 00 00  Length = 168000 BitCount = 87 ID = 260
   1.400000    Piston       := 7
   1.400174 1  104             Tx   d 4 01 00 00 00  Length = 168000 BitCount = 87 ID = 260
   1.600000    Piston       := 8
   1.600174 1  104             Tx   d 4 01 00 00 00  Length = 168000 BitCount = 87 ID = 260
   1.800000    Piston       := 9
   1.800174 1  104             Tx   d 4 01 00 00 00  Length = 168000 BitCount = 87 ID = 260
   2.000000    Piston       := a
   2.000000 1  Statistic: D 5 R 0 XD 0 XR 0 E 0 O 0 B 0.09%
   2.000174 1  104             Tx   d 4 01 00 00 00  Length = 168000 BitCount = 87 ID = 260
   2.200000    Piston       := b
   2.200174 1  104             Tx   d 4 01 00 00 00  Length = 168000 BitCount = 87 ID = 260
   2.400000    Piston       := c
   2.400174 1  104             Tx   d 4 01 00 00 00  Length = 168000 BitCount = 87 ID = 260
   2.600000    Piston       := d
   2.600174 1  104             Tx   d 4 01 00 00 00  Length = 168000 BitCount = 87 ID = 260
   2.800000    Piston       := e
   2.800174 1  104             Tx   d 4 01 00 00 00  Length = 168000 BitCount = 87 ID = 260
   3.000000    Piston       := f
   3.000000 1  Statistic: D 5 R 0 XD 0 XR 0 E 0 O 0 B 0.09%
   3.000174 1  104             Tx   d 4 01 00 00 00  Length = 168000 BitCount = 87 ID = 260
   3.200000    Piston       := 10
   3.200174 1  104             Tx   d 4 01 00 00 00  Length = 168000 BitCount = 87 ID = 260
   3.400000    Piston       := 0
   3.400174 1  104             Tx   d 4 01 00 00 00  Length = 168000 BitCount = 87 ID = 260
   3.600000    Piston       := 1
   3.600174 1  104             Tx   d 4 01 00 00 00  Length = 168000 BitCount = 87 ID = 260
   3.800000    Piston       := 2
   3.800174 1  104             Tx   d 4 01 00 00 00  Length = 168000 BitCount = 87 ID = 260
   4.000000    Piston       := 3
   4.000000 1  Statistic: D 5 R 0 XD 0 XR 0 E 0 O 0 B 0.09%
   4.000174 1  104             Tx   d 4 01 00 00 00  Length = 168000 BitCount = 87 ID = 260
   4.200000    Piston       := 4
   4.200174 1  104             Tx   d 4 01 00 00 00  Length = 168000 BitCount = 87 ID = 260
   4.400000    Piston       := 5
   4.400174 1  104             Tx   d 4 01 00 00 00  Length = 168000 BitCount = 87 ID = 260
   4.600000    Piston       := 6
   4.600174 1  104             Tx   d 4 01 00 00 00  Length = 168000 BitCount = 87 ID = 260
   4.800000    Piston       := 7
   4.800174 1  104             Tx   d 4 01 00 00 00  Length = 168000 BitCount = 87 ID = 260
   5.000000    Piston       := 8
   5.000000 1  Statistic: D 5 R 0 XD 0 XR 0 E 0 O 0 B 0.09%
   5.000174 1  104             Tx   d 4 01 00 00 00  Length = 168000 BitCount = 87 ID = 260
   5.200000    Piston       := 9
   5.200174 1  104             Tx   d 4 01 00 00 00  Length = 168000 BitCount = 87 ID = 260
   5.280000    Acceleration_Env := 1c
   5.280134 1  106             Tx   d 2 1C 00  Length = 128000 BitCount = 67 ID = 262
   5.390000    Acceleration_Env := 29
   5.390000    Acceleration_Env := 37
   5.390132 1  106             Tx   d 2 29 00  Length = 126000 BitCount = 66 ID = 262
   5.390266 1  106             Tx   d 2 37 00  Length = 128000 BitCount = 67 ID = 262
   5.400000    Piston       := a
   5.400170 1  104             Tx   d 4 01 00 37 00  Length = 164000 BitCount = 85 ID = 260
   5.500000    Acceleration_Env := 45
   5.500000    Acceleration_Env := 53
   5.500000    Acceleration_Env := 61
   5.500132 1  106             Tx   d 2 45 00  Length = 126000 BitCount = 66 ID = 262
   5.500266 1  106             Tx   d 2 53 00  Length = 128000 BitCount = 67 ID = 262
   5.500402 1  106             Tx   d 2 61 00  Length = 130000 BitCount = 68 ID = 262
   5.600000    Piston       := b
   5.600168 1  104             Tx   d 4 01 00 61 00  Length = 162000 BitCount = 84 ID = 260
   5.610000    Acceleration_Env := 6e
   5.610138 1  106             Tx   d 2 6E 00  Length = 132000 BitCount = 69 ID = 262
   5.800000    Piston       := c
   5.800168 1  104             Tx   d 4 01 00 6E 00  Length = 162000 BitCount = 84 ID = 260
   5.940000    Acceleration_Env := 7c
   5.940136 1  106             Tx   d 2 7C 00  Length = 130000 BitCount = 68 ID = 262
   6.000000    Piston       := d
   6.000000 1  Statistic: D 13 R 0 XD 0 XR 0 E 0 O 0 B 0.21%
   6.000172 1  104             Tx   d 4 01 00 7C 00  Length = 166000 BitCount = 86 ID = 260
   6.050000    Acceleration_Env := 8a
   6.050134 1  106             Tx   d 2 8A 00  Length = 128000 BitCount = 67 ID = 262
   6.160000    Acceleration_Env := 98
   6.160000    Acceleration_Env := a6
   6.160000    Acceleration_Env := b4
   6.160136 1  106             Tx   d 2 98 00  Length = 130000 BitCount = 68 ID = 262
   6.160268 1  106             Tx   d 2 A6 00  Length = 126000 BitCount = 66 ID = 262
   6.160402 1  106             Tx   d 2 B4 00  Length = 128000 BitCount = 67 ID = 262
   6.200000    Piston       := e
   6.200170 1  104             Tx   d 4 01 00 B4 00  Length = 164000 BitCount = 85 ID = 260
   6.270000    Acceleration_Env := c1
   6.270134 1  106             Tx   d 2 C1 00  Length = 128000 BitCount = 67 ID = 262
   6.380000    Acceleration_Env := dd
   6.380132 1  106             Tx   d 2 DD 00  Length = 126000 BitCount = 66 ID = 262
   6.400000    Piston       := f
   6.400172 1  104             Tx   d 4 01 00 DD 00  Length = 166000 BitCount = 86 ID = 260
   6.490000    Acceleration_Env := eb
   6.490000    Acceleration_Env := f9
   6.490000    Acceleration_Env := 106
   6.490136 1  106             Tx   d 2 EB 00  Length = 130000 BitCount = 68 ID = 262
   6.490270 1  106             Tx   d 2 F9 00  Length = 128000 BitCount = 67 ID = 262
   6.490404 1  106             Tx   d 2 06 01  Length = 128000 BitCount = 67 ID = 262
   6.600000    Piston       := 10
   6.600000    Acceleration_Env := 114
   6.600000    Acceleration_Env := 122
   6.600000    Acceleration_Env := 130
   6.600170 1  104             Tx   d 4 01 00 06 01  Length = 164000 BitCount = 85 ID = 260
   6.600304 1  106             Tx   d 2 14 01  Length = 128000 BitCount = 67 ID = 262
   6.600436 1  106             Tx   d 2 22 01  Length = 126000 BitCount = 66 ID = 262
   6.600572 1  106             Tx   d 2 30 01  Length = 130000 BitCount = 68 ID = 262
   6.710000    Acceleration_Env := 13e
   6.710000    Acceleration_Env := 14c
   6.710136 1  106             Tx   d 2 3E 01  Length = 130000 BitCount = 68 ID = 262
   6.710268 1  106             Tx   d 2 4C 01  Length = 126000 BitCount = 66 ID = 262
   6.800000    Piston       := 0
   6.800168 1  104             Tx   d 4 01 00 4C 01  Length = 162000 BitCount = 84 ID = 260
   6.820000    Acceleration_Env := 159
   6.820000    Acceleration_Env := 167
   6.820000    Acceleration_Env := 175
   6.820132 1  106             Tx   d 2 59 01  Length = 126000 BitCount = 66 ID = 262
   6.820268 1  106             Tx   d 2 67 01  Length = 130000 BitCount = 68 ID = 262
   6.820400 1  106             Tx   d 2 75 01  Length = 126000 BitCount = 66 ID = 262
   6.930000    Acceleration_Env := 183
   6.930000    Acceleration_Env := 191
   6.930000    Acceleration_Env := 1ac
   6.930136 1  106             Tx   d 2 83 01  Length = 130000 BitCount = 68 ID = 262
   6.930270 1  106             Tx   d 2 91 01  Length = 128000 BitCount = 67 ID = 262
   6.930406 1  106             Tx   d 2 AC 01  Length = 130000 BitCount = 68 ID = 262
   7.000000    Piston       := 1
   7.000000 1  Statistic: D 25 R 0 XD 0 XR 0 E 0 O 0 B 0.39%
   7.000168 1  104             Tx   d 4 01 00 AC 01  Length = 162000 BitCount = 84 ID = 260
   7.040000    Acceleration_Env := 1ba
   7.040000    Acceleration_Env := 1c8
   7.040132 1  106             Tx   d 2 BA 01  Length = 126000 BitCount = 66 ID = 262
   7.040266 1  106             Tx   d 2 C8 01  Length = 128000 BitCount = 67 ID = 262
   7.150000    Acceleration_Env := 1d6
   7.150000    Acceleration_Env := 1e3
   7.150000    Acceleration_Env := 1f1
   7.150000    Acceleration_Env := 1ff
   7.150132 1  106             Tx   d 2 D6 01  Length = 126000 BitCount = 66 ID = 262
   7.150264 1  106             Tx   d 2 E3 01  Length = 126000 BitCount = 66 ID = 262
   7.150396 1  106             Tx   d 2 F1 01  Length = 126000 BitCount = 66 ID = 262
   7.150532 1  106             Tx   d 2 FF 01  Length = 130000 BitCount = 68 ID = 262
   7.200000    Piston       := 2
   7.200172 1  104             Tx   d 4 01 00 FF 01  Length = 166000 BitCount = 86 ID = 260
   7.260000    Acceleration_Env := 20d
   7.260000    Acceleration_Env := 21b
   7.260000    Acceleration_Env := 228
   7.260000    Acceleration_Env := 236
   7.260000    Acceleration_Env := 244
   7.260136 1  106             Tx   d 2 0D 02  Length = 130000 BitCount = 68 ID = 262
   7.260268 1  106             Tx   d 2 1B 02  Length = 126000 BitCount = 66 ID = 262
   7.260400 1  106             Tx   d 2 28 02  Length = 126000 BitCount = 66 ID = 262
   7.260532 1  106             Tx   d 2 36 02  Length = 126000 BitCount = 66 ID = 262
   7.260664 1  106             Tx   d 2 44 02  Length = 126000 BitCount = 66 ID = 262
   7.370000    Acceleration_Env := 252
   7.370000    Acceleration_Env := 260
   7.370000    Acceleration_Env := 26e
   7.370000    Acceleration_Env := 27b
   7.370132 1  106             Tx   d 2 52 02  Length = 126000 BitCount = 66 ID = 262
   7.370266 1  106             Tx   d 2 60 02  Length = 128000 BitCount = 67 ID = 262
   7.370398 1  106             Tx   d 2 6E 02  Length = 126000 BitCount = 66 ID = 262
   7.370530 1  106             Tx   d 2 7B 02  Length = 126000 BitCount = 66 ID = 262
   7.400000    Piston       := 3
   7.400170 1  104             Tx   d 4 01 00 7B 02  Length = 164000 BitCount = 85 ID = 260
   7.480000    Acceleration_Env := 289
   7.480000    Acceleration_Env := 297
   7.480000    Acceleration_Env := 2a5
   7.480134 1  106             Tx   d 2 89 02  Length = 128000 BitCount = 67 ID = 262
   7.480266 1  106             Tx   d 2 97 02  Length = 126000 BitCount = 66 ID = 262
   7.480398 1  106             Tx   d 2 A5 02  Length = 126000 BitCount = 66 ID = 262
   7.590000    Acceleration_Env := 2b3
   7.590000    Acceleration_Env := 2c0
   7.590132 1  106             Tx   d 2 B3 02  Length = 126000 BitCount = 66 ID = 262
   7.590268 1  106             Tx   d 2 C0 02  Length = 130000 BitCount = 68 ID = 262
   7.600000    Piston       := 4
   7.600172 1  104             Tx   d 4 01 00 C0 02  Length = 166000 BitCount = 86 ID = 260
   7.700000    Acceleration_Env := 2ce
   7.700000    Acceleration_Env := 2dc
   7.700000    Acceleration_Env := 2ea
   7.700000    Acceleration_Env := 2f8
   7.700136 1  106             Tx   d 2 CE 02  Length = 130000 BitCount = 68 ID = 262
   7.700268 1  106             Tx   d 2 DC 02  Length = 126000 BitCount = 66 ID = 262
   7.700402 1  106             Tx   d 2 EA 02  Length = 128000 BitCount = 67 ID = 262
   7.700542 1  106             Tx   d 2 F8 02  Length = 134000 BitCount = 70 ID = 262
   7.800000    Piston       := 5
   7.800172 1  104             Tx   d 4 01 00 F8 02  Length = 166000 BitCount = 86 ID = 260
   7.810000    Acceleration_Env := 306
   7.810000    Acceleration_Env := 313
   7.810000    Acceleration_Env := 321
   7.810134 1  106             Tx   d 2 06 03  Length = 128000 BitCount = 67 ID = 262
   7.810268 1  106             Tx   d 2 13 03  Length = 128000 BitCount = 67 ID = 262
   7.810400 1  106             Tx   d 2 21 03  Length = 126000 BitCount = 66 ID = 262
   7.920000    Acceleration_Env := 32f
   7.920000    Acceleration_Env := 33d
   7.920134 1  106             Tx   d 2 2F 03  Length = 128000 BitCount = 67 ID = 262
   7.920266 1  106             Tx   d 2 3D 03  Length = 126000 BitCount = 66 ID = 262
   8.000000    Piston       := 6
   8.000000 1  Statistic: D 34 R 0 XD 0 XR 0 E 0 O 0 B 0.53%
   8.000172 1  104             Tx   d 4 01 00 3D 03  Length = 166000 BitCount = 86 ID = 260
   8.030000    Acceleration_Env := 34b
   8.030000    Acceleration_Env := 358
   8.030000    Acceleration_Env := 366
   8.030132 1  106             Tx   d 2 4B 03  Length = 126000 BitCount = 66 ID = 262
   8.030264 1  106             Tx   d 2 58 03  Length = 126000 BitCount = 66 ID = 262
   8.030396 1  106             Tx   d 2 66 03  Length = 126000 BitCount = 66 ID = 262
   8.140000    Acceleration_Env := 374
   8.140000    Acceleration_Env := 382
   8.140134 1  106             Tx   d 2 74 03  Length = 128000 BitCount = 67 ID = 262
   8.140270 1  106             Tx   d 2 82 03  Length = 130000 BitCount = 68 ID = 262
   8.200000    Piston       := 7
   8.200170 1  104             Tx   d 4 01 00 82 03  Length = 164000 BitCount = 85 ID = 260
   8.250000    Acceleration_Env := 390
   8.250136 1  106             Tx   d 2 90 03  Length = 130000 BitCount = 68 ID = 262
   8.360000    Acceleration_Env := 39d
   8.360000    Acceleration_Env := 3ab
   8.360000    Acceleration_Env := 3b9
   8.360134 1  106             Tx   d 2 9D 03  Length = 128000 BitCount = 67 ID = 262
   8.360266 1  106             Tx   d 2 AB 03  Length = 126000 BitCount = 66 ID = 262
   8.360400 1  106             Tx   d 2 B9 03  Length = 128000 BitCount = 67 ID = 262
   8.400000    Piston       := 8
   8.400168 1  104             Tx   d 4 01 00 B9 03  Length = 162000 BitCount = 84 ID = 260
   8.470000    Acceleration_Env := 3c7
   8.470000    Acceleration_Env := 3d5
   8.470132 1  106             Tx   d 2 C7 03  Length = 126000 BitCount = 66 ID = 262
   8.470266 1  106             Tx   d 2 D5 03  Length = 128000 BitCount = 67 ID = 262
   8.580000    Acceleration_Env := 3e2
   8.580000    Acceleration_Env := 3f0
   8.580132 1  106             Tx   d 2 E2 03  Length = 126000 BitCount = 66 ID = 262
   8.580268 1  106             Tx   d 2 F0 03  Length = 130000 BitCount = 68 ID = 262
   8.600000    Piston       := 9
   8.600170 1  104             Tx   d 4 01 00 F0 03  Length = 164000 BitCount = 85 ID = 260
   8.690000    Acceleration_Env := 3fe
   8.690000    Acceleration_Env := 40c
   8.690136 1  106             Tx   d 2 FE 03  Length = 130000 BitCount = 68 ID = 262
   8.690270 1  106             Tx   d 2 0C 04  Length = 128000 BitCount = 67 ID = 262
   8.800000    Piston       := a
   8.800170 1  104             Tx   d 4 01 00 0C 04  Length = 164000 BitCount = 85 ID = 260
   9.000000    Piston       := b
   9.000000 1  Statistic: D 20 R 0 XD 0 XR 0 E 0 O 0 B 0.32%
   9.000170 1  104             Tx   d 4 01 00 0C 04  Length = 164000 BitCount = 85 ID = 260
   9.200000    Piston       := c
   9.200170 1  104             Tx   d 4 01 00 0C 04  Length = 164000 BitCount = 85 ID = 260
   9.400000    Piston       := d
   9.400170 1  104             Tx   d 4 01 00 0C 04  Length = 164000 BitCount = 85 ID = 260
   9.600000    Piston       := e
   9.600170 1  104             Tx   d 4 01 00 0C 04  Length = 164000 BitCount = 85 ID = 260
   9.680000    SV: 2 0 0 ::PowerTrain::Brake = 1
   9.680116 1  105             Tx   d 1 01  Length = 110000 BitCount = 58 ID = 261
   9.790000    SV: 2 0 0 ::PowerTrain::Brake = 0
   9.790116 1  105             Tx   d 1 00  Length = 110000 BitCount = 58 ID = 261
   9.800000    Piston       := f
   9.800174 1  104             Tx   d 4 01 00 00 00  Length = 168000 BitCount = 87 ID = 260
  10.000000    Piston       := 10
  10.000000 1  Statistic: D 7 R 0 XD 0 XR 0 E 0 O 0 B 0.11%
  10.000174 1  104             Tx   d 4 01 00 00 00  Length = 168000 BitCount = 87 ID = 260
  10.200000    Piston       := 0
  10.200174 1  104             Tx   d 4 01 00 00 00  Length = 168000 BitCount = 87 ID = 260
  10.400000    Piston       := 1
  10.400174 1  104             Tx   d 4 01 00 00 00  Length = 168000 BitCount = 87 ID = 260
  10.600000    Piston       := 2
  10.600174 1  104             Tx   d 4 01 00 00 00  Length = 168000 BitCount = 87 ID = 260
  10.800000    Piston       := 3
  10.800174 1  104             Tx   d 4 01 00 00 00  Length = 168000 BitCount = 87 ID = 260
  11.000000    Piston       := 4
  11.000000 1  Statistic: D 5 R 0 XD 0 XR 0 E 0 O 0 B 0.09%
  11.000174 1  104             Tx   d 4 01 00 00 00  Length = 168000 BitCount = 87 ID = 260
  11.200000    Piston       := 5
  11.200174 1  104             Tx   d 4 01 00 00 00  Length = 168000 BitCount = 87 ID = 260
  11.400000    Piston       := 6
  11.400174 1  104             Tx   d 4 01 00 00 00  Length = 168000 BitCount = 87 ID = 260
  11.600000    Piston       := 7
  11.600174 1  104             Tx   d 4 01 00 00 00  Length = 168000 BitCount = 87 ID = 260
  11.800000    Piston       := 8
  11.800174 1  104             Tx   d 4 01 00 00 00  Length = 168000 BitCount = 87 ID = 260
  12.000000    Piston       := 9
  12.000000 1  Statistic: D 5 R 0 XD 0 XR 0 E 0 O 0 B 0.09%
  12.000174 1  104             Tx   d 4 01 00 00 00  Length = 168000 BitCount = 87 ID = 260
  12.200000    Piston       := a
  12.200174 1  104             Tx   d 4 01 00 00 00  Length = 168000 BitCount = 87 ID = 260
  12.400000    Piston       := b
  12.400174 1  104             Tx   d 4 01 00 00 00  Length = 168000 BitCount = 87 ID = 260
  12.600000    Piston       := c
  12.600174 1  104             Tx   d 4 01 00 00 00  Length = 168000 BitCount = 87 ID = 260
  12.760000    Acceleration_Env := 3d5
  12.760000    Acceleration_Env := 3b9
  12.760000    Acceleration_Env := 3ab
  12.760000    Acceleration_Env := 390
  12.760000    Acceleration_Env := 382
  12.760000    Acceleration_Env := 366
  12.760000    Acceleration_Env := 34b
  12.760000    Acceleration_Env := 33d
  12.760000    Acceleration_Env := 32f
  12.760134 1  106             Tx   d 2 D5 03  Length = 128000 BitCount = 67 ID = 262
  12.760268 1  106             Tx   d 2 B9 03  Length = 128000 BitCount = 67 ID = 262
  12.760400 1  106             Tx   d 2 AB 03  Length = 126000 BitCount = 66 ID = 262
  12.760536 1  106             Tx   d 2 90 03  Length = 130000 BitCount = 68 ID = 262
  12.760672 1  106             Tx   d 2 82 03  Length = 130000 BitCount = 68 ID = 262
  12.760804 1  106             Tx   d 2 66 03  Length = 126000 BitCount = 66 ID = 262
  12.760936 1  106             Tx   d 2 4B 03  Length = 126000 BitCount = 66 ID = 262
  12.761068 1  106             Tx   d 2 3D 03  Length = 126000 BitCount = 66 ID = 262
  12.761202 1  106             Tx   d 2 2F 03  Length = 128000 BitCount = 67 ID = 262
  12.800000    Piston       := d
  12.800172 1  104             Tx   d 4 01 00 2F 03  Length = 166000 BitCount = 86 ID = 260
  12.870000    Acceleration_Env := 321
  12.870000    Acceleration_Env := 313
  12.870000    Acceleration_Env := 306
  12.870000    Acceleration_Env := 2f8
  12.870000    Acceleration_Env := 2ea
  12.870132 1  106             Tx   d 2 21 03  Length = 126000 BitCount = 66 ID = 262
  12.870266 1  106             Tx   d 2 13 03  Length = 128000 BitCount = 67 ID = 262
  12.870400 1  106             Tx   d 2 06 03  Length = 128000 BitCount = 67 ID = 262
  12.870540 1  106             Tx   d 2 F8 02  Length = 134000 BitCount = 70 ID = 262
  12.870674 1  106             Tx   d 2 EA 02  Length = 128000 BitCount = 67 ID = 262
  12.980000    Acceleration_Env := 2dc
  12.980000    Acceleration_Env := 2c0
  12.980000    Acceleration_Env := 2b3
  12.980000    Acceleration_Env := 297
  12.980000    Acceleration_Env := 289
  12.980000    Acceleration_Env := 27b
  12.980132 1  106             Tx   d 2 DC 02  Length = 126000 BitCount = 66 ID = 262
  12.980268 1  106             Tx   d 2 C0 02  Length = 130000 BitCount = 68 ID = 262
  12.980400 1  106             Tx   d 2 B3 02  Length = 126000 BitCount = 66 ID = 262
  12.980532 1  106             Tx   d 2 97 02  Length = 126000 BitCount = 66 ID = 262
  12.980666 1  106             Tx   d 2 89 02  Length = 128000 BitCount = 67 ID = 262
  12.980798 1  106             Tx   d 2 7B 02  Length = 126000 BitCount = 66 ID = 262
  13.000000    Piston       := e
  13.000000 1  Statistic: D 25 R 0 XD 0 XR 0 E 0 O 0 B 0.39%
  13.000170 1  104             Tx   d 4 01 00 7B 02  Length = 164000 BitCount = 85 ID = 260
  13.090000    Acceleration_Env := 26e
  13.090000    Acceleration_Env := 260
  13.090000    Acceleration_Env := 244
  13.090000    Acceleration_Env := 236
  13.090000    Acceleration_Env := 228
  13.090000    Acceleration_Env := 21b
  13.090000    Acceleration_Env := 20d
  13.090132 1  106             Tx   d 2 6E 02  Length = 126000 BitCount = 66 ID = 262
  13.090266 1  106             Tx   d 2 60 02  Length = 128000 BitCount = 67 ID = 262
  13.090398 1  106             Tx   d 2 44 02  Length = 126000 BitCount = 66 ID = 262
  13.090530 1  106             Tx   d 2 36 02  Length = 126000 BitCount = 66 ID = 262
  13.090662 1  106             Tx   d 2 28 02  Length = 126000 BitCount = 66 ID = 262
  13.090794 1  106             Tx   d 2 1B 02  Length = 126000 BitCount = 66 ID = 262
  13.090930 1  106             Tx   d 2 0D 02  Length = 130000 BitCount = 68 ID = 262
  13.200000    Piston       := f
  13.200000    Acceleration_Env := 1ff
  13.200000    Acceleration_Env := 1f1
  13.200000    Acceleration_Env := 1e3
  13.200000    Acceleration_Env := 1d6
  13.200000    Acceleration_Env := 1c8
  13.200170 1  104             Tx   d 4 01 00 0D 02  Length = 164000 BitCount = 85 ID = 260
  13.200306 1  106             Tx   d 2 FF 01  Length = 130000 BitCount = 68 ID = 262
  13.200438 1  106             Tx   d 2 F1 01  Length = 126000 BitCount = 66 ID = 262
  13.200570 1  106             Tx   d 2 E3 01  Length = 126000 BitCount = 66 ID = 262
  13.200702 1  106             Tx   d 2 D6 01  Length = 126000 BitCount = 66 ID = 262
  13.200836 1  106             Tx   d 2 C8 01  Length = 128000 BitCount = 67 ID = 262
  13.310000    Acceleration_Env := 1ba
  13.310000    Acceleration_Env := 1ac
  13.310000    Acceleration_Env := 19e
  13.310000    Acceleration_Env := 183
  13.310000    Acceleration_Env := 175
  13.310000    Acceleration_Env := 167
  13.310132 1  106             Tx   d 2 BA 01  Length = 126000 BitCount = 66 ID = 262
  13.310268 1  106             Tx   d 2 AC 01  Length = 130000 BitCount = 68 ID = 262
  13.310402 1  106             Tx   d 2 9E 01  Length = 128000 BitCount = 67 ID = 262
  13.310538 1  106             Tx   d 2 83 01  Length = 130000 BitCount = 68 ID = 262
  13.310670 1  106             Tx   d 2 75 01  Length = 126000 BitCount = 66 ID = 262
  13.310806 1  106             Tx   d 2 67 01  Length = 130000 BitCount = 68 ID = 262
  13.400000    Piston       := 10
  13.400168 1  104             Tx   d 4 01 00 67 01  Length = 162000 BitCount = 84 ID = 260
  13.420000    Acceleration_Env := 159
  13.420000    Acceleration_Env := 14c
  13.420000    Acceleration_Env := 13e
  13.420000    Acceleration_Env := 130
  13.420000    Acceleration_Env := 122
  13.420000    Acceleration_Env := 114
  13.420132 1  106             Tx   d 2 59 01  Length = 126000 BitCount = 66 ID = 262
  13.420264 1  106             Tx   d 2 4C 01  Length = 126000 BitCount = 66 ID = 262
  13.420400 1  106             Tx   d 2 3E 01  Length = 130000 BitCount = 68 ID = 262
  13.420536 1  106             Tx   d 2 30 01  Length = 130000 BitCount = 68 ID = 262
  13.420668 1  106             Tx   d 2 22 01  Length = 126000 BitCount = 66 ID = 262
  13.420802 1  106             Tx   d 2 14 01  Length = 128000 BitCount = 67 ID = 262
  13.530000    Acceleration_Env := 106
  13.530000    Acceleration_Env := f9
  13.530000    Acceleration_Env := eb
  13.530000    Acceleration_Env := dd
  13.530000    Acceleration_Env := cf
  13.530134 1  106             Tx   d 2 06 01  Length = 128000 BitCount = 67 ID = 262
  13.530268 1  106             Tx   d 2 F9 00  Length = 128000 BitCount = 67 ID = 262
  13.530404 1  106             Tx   d 2 EB 00  Length = 130000 BitCount = 68 ID = 262
  13.530536 1  106             Tx   d 2 DD 00  Length = 126000 BitCount = 66 ID = 262
  13.530672 1  106             Tx   d 2 CF 00  Length = 130000 BitCount = 68 ID = 262
  13.600000    Piston       := 0
  13.600170 1  104             Tx   d 4 01 00 CF 00  Length = 164000 BitCount = 85 ID = 260
  13.640000    Acceleration_Env := c1
  13.640000    Acceleration_Env := a6
  13.640134 1  106             Tx   d 2 C1 00  Length = 128000 BitCount = 67 ID = 262
  13.640266 1  106             Tx   d 2 A6 00  Length = 126000 BitCount = 66 ID = 262
  13.750000    Acceleration_Env := 98
  13.750136 1  106             Tx   d 2 98 00  Length = 130000 BitCount = 68 ID = 262
  13.800000    Piston       := 1
  13.800170 1  104             Tx   d 4 01 00 98 00  Length = 164000 BitCount = 85 ID = 260
  13.860000    Acceleration_Env := 8a
  13.860134 1  106             Tx   d 2 8A 00  Length = 128000 BitCount = 67 ID = 262
  14.000000    Piston       := 2
  14.000000 1  Statistic: D 38 R 0 XD 0 XR 0 E 0 O 0 B 0.59%
  14.000170 1  104             Tx   d 4 01 00 8A 00  Length = 164000 BitCount = 85 ID = 260
  14.190000    Acceleration_Env := 7c
  14.190136 1  106             Tx   d 2 7C 00  Length = 130000 BitCount = 68 ID = 262
  14.200000    Piston       := 3
  14.200172 1  104             Tx   d 4 01 00 7C 00  Length = 166000 BitCount = 86 ID = 260
  14.300000    Acceleration_Env := 6e
  14.300000    Acceleration_Env := 53
  14.300000    Acceleration_Env := 45
  14.300000    Acceleration_Env := 29
  14.300000    Acceleration_Env := 1c
  14.300000    Acceleration_Env := 0
  14.300138 1  106             Tx   d 2 6E 00  Length = 132000 BitCount = 69 ID = 262
  14.300272 1  106             Tx   d 2 53 00  Length = 128000 BitCount = 67 ID = 262
  14.300404 1  106             Tx   d 2 45 00  Length = 126000 BitCount = 66 ID = 262
  14.300536 1  106             Tx   d 2 29 00  Length = 126000 BitCount = 66 ID = 262
  14.300670 1  106             Tx   d 2 1C 00  Length = 128000 BitCount = 67 ID = 262
  14.300806 1  106             Tx   d 2 00 00  Length = 130000 BitCount = 68 ID = 262
  14.400000    Piston       := 4
  14.400174 1  104             Tx   d 4 01 00 00 00  Length = 168000 BitCount = 87 ID = 260
  14.600000    Piston       := 5
  14.600174 1  104             Tx   d 4 01 00 00 00  Length = 168000 BitCount = 87 ID = 260
  14.800000    Piston       := 6
  14.800174 1  104             Tx   d 4 01 00 00 00  Length = 168000 BitCount = 87 ID = 260
  15.000000    Piston       := 7
  15.000000 1  Statistic: D 12 R 0 XD 0 XR 0 E 0 O 0 B 0.19%
  15.000174 1  104             Tx   d 4 01 00 00 00  Length = 168000 BitCount = 87 ID = 260
  15.200000    Piston       := 8
  15.200174 1  104             Tx   d 4 01 00 00 00  Length = 168000 BitCount = 87 ID = 260
  15.400000    Piston       := 9
  15.400174 1  104             Tx   d 4 01 00 00 00  Length = 168000 BitCount = 87 ID = 260
  15.600000    Piston       := a
  15.600174 1  104             Tx   d 4 01 00 00 00  Length = 168000 BitCount = 87 ID = 260
  15.800000    Piston       := b
  15.800174 1  104             Tx   d 4 01 00 00 00  Length = 168000 BitCount = 87 ID = 260
  16.000000    Piston       := c
  16.000000 1  Statistic: D 5 R 0 XD 0 XR 0 E 0 O 0 B 0.09%
  16.000174 1  104             Tx   d 4 01 00 00 00  Length = 168000 BitCount = 87 ID = 260
  16.200000    Piston       := d
  16.200174 1  104             Tx   d 4 01 00 00 00  Length = 168000 BitCount = 87 ID = 260
  16.400000    Piston       := e
  16.400174 1  104             Tx   d 4 01 00 00 00  Length = 168000 BitCount = 87 ID = 260
  16.600000    Piston       := f
  16.600174 1  104             Tx   d 4 01 00 00 00  Length = 168000 BitCount = 87 ID = 260
  16.800000    Piston       := 10
  16.800174 1  104             Tx   d 4 01 00 00 00  Length = 168000 BitCount = 87 ID = 260
  17.000000    Piston       := 0
  17.000000 1  Statistic: D 5 R 0 XD 0 XR 0 E 0 O 0 B 0.09%
  17.000174 1  104             Tx   d 4 01 00 00 00  Length = 168000 BitCount = 87 ID = 260
  17.200000    Piston       := 1
  17.200174 1  104             Tx   d 4 01 00 00 00  Length = 168000 BitCount = 87 ID = 260
  17.400000    Piston       := 2
  17.400174 1  104             Tx   d 4 01 00 00 00  Length = 168000 BitCount = 87 ID = 260
  17.600000    Piston       := 3
  17.600174 1  104             Tx   d 4 01 00 00 00  Length = 168000 BitCount = 87 ID = 260
  17.800000    Piston       := 4
  17.800174 1  104             Tx   d 4 01 00 00 00  Length = 168000 BitCount = 87 ID = 260
  18.000000    Piston       := 5
  18.000000 1  Statistic: D 5 R 0 XD 0 XR 0 E 0 O 0 B 0.09%
  18.000174 1  104             Tx   d 4 01 00 00 00  Length = 168000 BitCount = 87 ID = 260
  18.200000    Piston       := 6
  18.200174 1  104             Tx   d 4 01 00 00 00  Length = 168000 BitCount = 87 ID = 260
  18.400000    Piston       := 7
  18.400174 1  104             Tx   d 4 01 00 00 00  Length = 168000 BitCount = 87 ID = 260
  18.600000    Piston       := 8
  18.600174 1  104             Tx   d 4 01 00 00 00  Length = 168000 BitCount = 87 ID = 260
  18.800000    Piston       := 9
  18.800174 1  104             Tx   d 4 01 00 00 00  Length = 168000 BitCount = 87 ID = 260
  19.000000    Piston       := a
  19.000000 1  Statistic: D 5 R 0 XD 0 XR 0 E 0 O 0 B 0.09%
  19.000174 1  104             Tx   d 4 01 00 00 00  Length = 168000 BitCount = 87 ID = 260
  19.200000    Piston       := b
  19.200174 1  104             Tx   d 4 01 00 00 00  Length = 168000 BitCount = 87 ID = 260
  19.400000    Piston       := c
  19.400174 1  104             Tx   d 4 01 00 00 00  Length = 168000 BitCount = 87 ID = 260
  19.600000    Piston       := d
  19.600174 1  104             Tx   d 4 01 00 00 00  Length = 168000 BitCount = 87 ID = 260
  19.800000    Piston       := e
  19.800174 1  104             Tx   d 4 01 00 00 00  Length = 168000 BitCount = 87 ID = 260
  20.000000    Piston       := f
  20.000000 1  Statistic: D 5 R 0 XD 0 XR 0 E 0 O 0 B 0.09%
  20.000174 1  104             Tx   d 4 01 00 00 00  Length = 168000 BitCount = 87 ID = 260
  20.200000    Piston       := 10
  20.200174 1  104             Tx   d 4 01 00 00 00  Length = 168000 BitCount = 87 ID = 260
  20.400000    Piston       := 0
  20.400174 1  104             Tx   d 4 01 00 00 00  Length = 168000 BitCount = 87 ID = 260
  20.600000    Piston       := 1
  20.600174 1  104             Tx   d 4 01 00 00 00  Length = 168000 BitCount = 87 ID = 260
  20.800000    Piston       := 2
  20.800174 1  104             Tx   d 4 01 00 00 00  Length = 168000 BitCount = 87 ID = 260
  21.000000    Piston       := 3
  21.000000 1  Statistic: D 5 R 0 XD 0 XR 0 E 0 O 0 B 0.09%
  21.000174 1  104             Tx   d 4 01 00 00 00  Length = 168000 BitCount = 87 ID = 260
  21.200000    Piston       := 4
  21.200174 1  104             Tx   d 4 01 00 00 00  Length = 168000 BitCount = 87 ID = 260
  21.400000    Piston       := 5
  21.400174 1  104             Tx   d 4 01 00 00 00  Length = 168000 BitCount = 87 ID = 260
  21.600000    Piston       := 6
  21.600174 1  104             Tx   d 4 01 00 00 00  Length = 168000 BitCount = 87 ID = 260
  21.800000    Piston       := 7
  21.800174 1  104             Tx   d 4 01 00 00 00  Length = 168000 BitCount = 87 ID = 260
  22.000000    Piston       := 8
  22.000000 1  Statistic: D 5 R 0 XD 0 XR 0 E 0 O 0 B 0.09%
  22.000174 1  104             Tx   d 4 01 00 00 00  Length = 168000 BitCount = 87 ID = 260
  22.200000    Piston       := 9
  22.200174 1  104             Tx   d 4 01 00 00 00  Length = 168000 BitCount = 87 ID = 260
  22.400000    Piston       := a
  22.400174 1  104             Tx   d 4 01 00 00 00  Length = 168000 BitCount = 87 ID = 260
  22.600000    Piston       := b
  22.600174 1  104             Tx   d 4 01 00 00 00  Length = 168000 BitCount = 87 ID = 260
  22.800000    Piston       := c
  22.800174 1  104             Tx   d 4 01 00 00 00  Length = 168000 BitCount = 87 ID = 260
  23.000000    Piston       := d
  23.000000 1  Statistic: D 5 R 0 XD 0 XR 0 E 0 O 0 B 0.09%
  23.000174 1  104             Tx   d 4 01 00 00 00  Length = 168000 BitCount = 87 ID = 260
  23.200000    Piston       := e
  23.200174 1  104             Tx   d 4 01 00 00 00  Length = 168000 BitCount = 87 ID = 260
  23.400000    Piston       := f
  23.400174 1  104             Tx   d 4 01 00 00 00  Length = 168000 BitCount = 87 ID = 260
  23.600000    Piston       := 10
  23.600174 1  104             Tx   d 4 01 00 00 00  Length = 168000 BitCount = 87 ID = 260
  23.650000    Acceleration_Env := 37
  23.650000    Acceleration_Env := 53
  23.650000    Acceleration_Env := 61
  23.650000    Acceleration_Env := 7c
  23.650000    Acceleration_Env := 8a
  23.650000    Acceleration_Env := a6
  23.650000    Acceleration_Env := b4
  23.650134 1  106             Tx   d 2 37 00  Length = 128000 BitCount = 67 ID = 262
  23.650268 1  106             Tx   d 2 53 00  Length = 128000 BitCount = 67 ID = 262
  23.650404 1  106             Tx   d 2 61 00  Length = 130000 BitCount = 68 ID = 262
  23.650540 1  106             Tx   d 2 7C 00  Length = 130000 BitCount = 68 ID = 262
  23.650674 1  106             Tx   d 2 8A 00  Length = 128000 BitCount = 67 ID = 262
  23.650806 1  106             Tx   d 2 A6 00  Length = 126000 BitCount = 66 ID = 262
  23.650940 1  106             Tx   d 2 B4 00  Length = 128000 BitCount = 67 ID = 262
  23.760000    Acceleration_Env := cf
  23.760000    Acceleration_Env := dd
  23.760000    Acceleration_Env := f9
  23.760136 1  106             Tx   d 2 CF 00  Length = 130000 BitCount = 68 ID = 262
  23.760268 1  106             Tx   d 2 DD 00  Length = 126000 BitCount = 66 ID = 262
  23.760402 1  106             Tx   d 2 F9 00  Length = 128000 BitCount = 67 ID = 262
  23.800000    Piston       := 0
  23.800170 1  104             Tx   d 4 01 00 F9 00  Length = 164000 BitCount = 85 ID = 260
  23.870000    Acceleration_Env := 106
  23.870000    Acceleration_Env := 122
  23.870000    Acceleration_Env := 130
  23.870000    Acceleration_Env := 13e
  23.870000    Acceleration_Env := 14c
  23.870000    Acceleration_Env := 159
  23.870000    Acceleration_Env := 167
  23.870134 1  106             Tx   d 2 06 01  Length = 128000 BitCount = 67 ID = 262
  23.870266 1  106             Tx   d 2 22 01  Length = 126000 BitCount = 66 ID = 262
  23.870402 1  106             Tx   d 2 30 01  Length = 130000 BitCount = 68 ID = 262
  23.870538 1  106             Tx   d 2 3E 01  Length = 130000 BitCount = 68 ID = 262
  23.870670 1  106             Tx   d 2 4C 01  Length = 126000 BitCount = 66 ID = 262
  23.870802 1  106             Tx   d 2 59 01  Length = 126000 BitCount = 66 ID = 262
  23.870938 1  106             Tx   d 2 67 01  Length = 130000 BitCount = 68 ID = 262
  23.980000    Acceleration_Env := 175
  23.980000    Acceleration_Env := 183
  23.980000    Acceleration_Env := 19e
  23.980000    Acceleration_Env := 1ac
  23.980000    Acceleration_Env := 1ba
  23.980132 1  106             Tx   d 2 75 01  Length = 126000 BitCount = 66 ID = 262
  23.980268 1  106             Tx   d 2 83 01  Length = 130000 BitCount = 68 ID = 262
  23.980402 1  106             Tx   d 2 9E 01  Length = 128000 BitCount = 67 ID = 262
  23.980538 1  106             Tx   d 2 AC 01  Length = 130000 BitCount = 68 ID = 262
  23.980670 1  106             Tx   d 2 BA 01  Length = 126000 BitCount = 66 ID = 262
  24.000000    Piston       := 1
  24.000000 1  Statistic: D 27 R 0 XD 0 XR 0 E 0 O 0 B 0.42%
  24.000170 1  104             Tx   d 4 01 00 BA 01  Length = 164000 BitCount = 85 ID = 260
  24.200000    Piston       := 2
  24.200170 1  104             Tx   d 4 01 00 BA 01  Length = 164000 BitCount = 85 ID = 260
  24.400000    Piston       := 3
  24.400170 1  104             Tx   d 4 01 00 BA 01  Length = 164000 BitCount = 85 ID = 260
  24.600000    Piston       := 4
  24.600170 1  104             Tx   d 4 01 00 BA 01  Length = 164000 BitCount = 85 ID = 260
  24.800000    Piston       := 5
  24.800170 1  104             Tx   d 4 01 00 BA 01  Length = 164000 BitCount = 85 ID = 260
  25.000000    Piston       := 6
  25.000000 1  Statistic: D 5 R 0 XD 0 XR 0 E 0 O 0 B 0.09%
  25.000170 1  104             Tx   d 4 01 00 BA 01  Length = 164000 BitCount = 85 ID = 260
  25.200000    Piston       := 7
  25.200170 1  104             Tx   d 4 01 00 BA 01  Length = 164000 BitCount = 85 ID = 260
  25.400000    Piston       := 8
  25.400170 1  104             Tx   d 4 01 00 BA 01  Length = 164000 BitCount = 85 ID = 260
  25.600000    Piston       := 9
  25.600170 1  104             Tx   d 4 01 00 BA 01  Length = 164000 BitCount = 85 ID = 260
  25.800000    Piston       := a
  25.800170 1  104             Tx   d 4 01 00 BA 01  Length = 164000 BitCount = 85 ID = 260
  26.000000    Piston       := b
  26.000000 1  Statistic: D 5 R 0 XD 0 XR 0 E 0 O 0 B 0.09%
  26.000170 1  104             Tx   d 4 01 00 BA 01  Length = 164000 BitCount = 85 ID = 260
  26.200000    Piston       := c
  26.200170 1  104             Tx   d 4 01 00 BA 01  Length = 164000 BitCount = 85 ID = 260
  26.400000    Piston       := d
  26.400170 1  104             Tx   d 4 01 00 BA 01  Length = 164000 BitCount = 85 ID = 260
  26.600000    Piston       := e
  26.600170 1  104             Tx   d 4 01 00 BA 01  Length = 164000 BitCount = 85 ID = 260
  26.800000    Piston       := f
  26.800170 1  104             Tx   d 4 01 00 BA 01  Length = 164000 BitCount = 85 ID = 260
  27.000000    Piston       := 10
  27.000000 1  Statistic: D 5 R 0 XD 0 XR 0 E 0 O 0 B 0.09%
  27.000170 1  104             Tx   d 4 01 00 BA 01  Length = 164000 BitCount = 85 ID = 260
  27.200000    Piston       := 0
  27.200170 1  104             Tx   d 4 01 00 BA 01  Length = 164000 BitCount = 85 ID = 260
  27.400000    Piston       := 1
  27.400170 1  104             Tx   d 4 01 00 BA 01  Length = 164000 BitCount = 85 ID = 260
  27.600000    Piston       := 2
  27.600170 1  104             Tx   d 4 01 00 BA 01  Length = 164000 BitCount = 85 ID = 260
  27.800000    Piston       := 3
  27.800170 1  104             Tx   d 4 01 00 BA 01  Length = 164000 BitCount = 85 ID = 260
  28.000000    Piston       := 4
  28.000000 1  Statistic: D 5 R 0 XD 0 XR 0 E 0 O 0 B 0.09%
  28.000170 1  104             Tx   d 4 01 00 BA 01  Length = 164000 BitCount = 85 ID = 260
  28.200000    Piston       := 5
  28.200170 1  104             Tx   d 4 01 00 BA 01  Length = 164000 BitCount = 85 ID = 260
  28.400000    Piston       := 6
  28.400170 1  104             Tx   d 4 01 00 BA 01  Length = 164000 BitCount = 85 ID = 260
  28.600000    Piston       := 7
  28.600170 1  104             Tx   d 4 01 00 BA 01  Length = 164000 BitCount = 85 ID = 260
  28.800000    Piston       := 8
  28.800170 1  104             Tx   d 4 01 00 BA 01  Length = 164000 BitCount = 85 ID = 260
  28.930000    Acceleration_Env := 1d6
  28.930000    Acceleration_Env := 1e3
  28.930000    Acceleration_Env := 1f1
  28.930000    Acceleration_Env := 20d
  28.930000    Acceleration_Env := 21b
  28.930000    Acceleration_Env := 236
  28.930000    Acceleration_Env := 244
  28.930000    Acceleration_Env := 260
  28.930000    Acceleration_Env := 26e
  28.930132 1  106             Tx   d 2 D6 01  Length = 126000 BitCount = 66 ID = 262
  28.930264 1  106             Tx   d 2 E3 01  Length = 126000 BitCount = 66 ID = 262
  28.930396 1  106             Tx   d 2 F1 01  Length = 126000 BitCount = 66 ID = 262
  28.930532 1  106             Tx   d 2 0D 02  Length = 130000 BitCount = 68 ID = 262
  28.930664 1  106             Tx   d 2 1B 02  Length = 126000 BitCount = 66 ID = 262
  28.930796 1  106             Tx   d 2 36 02  Length = 126000 BitCount = 66 ID = 262
  28.930928 1  106             Tx   d 2 44 02  Length = 126000 BitCount = 66 ID = 262
  28.931062 1  106             Tx   d 2 60 02  Length = 128000 BitCount = 67 ID = 262
  28.931194 1  106             Tx   d 2 6E 02  Length = 126000 BitCount = 66 ID = 262
  29.000000    Piston       := 9
  29.000000 1  Statistic: D 14 R 0 XD 0 XR 0 E 0 O 0 B 0.22%
  29.000170 1  104             Tx   d 4 01 00 6E 02  Length = 164000 BitCount = 85 ID = 260
  29.040000    Acceleration_Env := 289
  29.040000    Acceleration_Env := 297
  29.040000    Acceleration_Env := 2a5
  29.040000    Acceleration_Env := 2b3
  29.040000    Acceleration_Env := 2c0
  29.040000    Acceleration_Env := 2ce
  29.040000    Acceleration_Env := 2dc
  29.040000    Acceleration_Env := 2ea
  29.040134 1  106             Tx   d 2 89 02  Length = 128000 BitCount = 67 ID = 262
  29.040266 1  106             Tx   d 2 97 02  Length = 126000 BitCount = 66 ID = 262
  29.040398 1  106             Tx   d 2 A5 02  Length = 126000 BitCount = 66 ID = 262
  29.040530 1  106             Tx   d 2 B3 02  Length = 126000 BitCount = 66 ID = 262
  29.040666 1  106             Tx   d 2 C0 02  Length = 130000 BitCount = 68 ID = 262
  29.040802 1  106             Tx   d 2 CE 02  Length = 130000 BitCount = 68 ID = 262
  29.040934 1  106             Tx   d 2 DC 02  Length = 126000 BitCount = 66 ID = 262
  29.041068 1  106             Tx   d 2 EA 02  Length = 128000 BitCount = 67 ID = 262
  29.150000    Acceleration_Env := 2f8
  29.150000    Acceleration_Env := 306
  29.150000    Acceleration_Env := 313
  29.150000    Acceleration_Env := 321
  29.150000    Acceleration_Env := 32f
  29.150140 1  106             Tx   d 2 F8 02  Length = 134000 BitCount = 70 ID = 262
  29.150274 1  106             Tx   d 2 06 03  Length = 128000 BitCount = 67 ID = 262
  29.150408 1  106             Tx   d 2 13 03  Length = 128000 BitCount = 67 ID = 262
  29.150540 1  106             Tx   d 2 21 03  Length = 126000 BitCount = 66 ID = 262
  29.150674 1  106             Tx   d 2 2F 03  Length = 128000 BitCount = 67 ID = 262
  29.200000    Piston       := a
  29.200172 1  104             Tx   d 4 01 00 2F 03  Length = 166000 BitCount = 86 ID = 260
  29.400000    Piston       := b
  29.400172 1  104             Tx   d 4 01 00 2F 03  Length = 166000 BitCount = 86 ID = 260
  29.480000    Acceleration_Env := 34b
  29.480000    Acceleration_Env := 366
  29.480000    Acceleration_Env := 382
  29.480000    Acceleration_Env := 390
  29.480000    Acceleration_Env := 3ab
  29.480000    Acceleration_Env := 3c7
  29.480000    Acceleration_Env := 3e2
  29.480132 1  106             Tx   d 2 4B 03  Length = 126000 BitCount = 66 ID = 262
  29.480264 1  106             Tx   d 2 66 03  Length = 126000 BitCount = 66 ID = 262
  29.480400 1  106             Tx   d 2 82 03  Length = 130000 BitCount = 68 ID = 262
  29.480536 1  106             Tx   d 2 90 03  Length = 130000 BitCount = 68 ID = 262
  29.480668 1  106             Tx   d 2 AB 03  Length = 126000 BitCount = 66 ID = 262
  29.480800 1  106             Tx   d 2 C7 03  Length = 126000 BitCount = 66 ID = 262
  29.480932 1  106             Tx   d 2 E2 03  Length = 126000 BitCount = 66 ID = 262
  29.590000    Acceleration_Env := 3f0
  29.590000    Acceleration_Env := 40c
  29.590000    Acceleration_Env := 41a
  29.590000    Acceleration_Env := 428
  29.590000    Acceleration_Env := 435
  29.590000    Acceleration_Env := 443
  29.590000    Acceleration_Env := 451
  29.590000    Acceleration_Env := 45f
  29.590000    Acceleration_Env := 46d
  29.590136 1  106             Tx   d 2 F0 03  Length = 130000 BitCount = 68 ID = 262
  29.590270 1  106             Tx   d 2 0C 04  Length = 128000 BitCount = 67 ID = 262
  29.590404 1  106             Tx   d 2 1A 04  Length = 128000 BitCount = 67 ID = 262
  29.590536 1  106             Tx   d 2 28 04  Length = 126000 BitCount = 66 ID = 262
  29.590670 1  106             Tx   d 2 35 04  Length = 128000 BitCount = 67 ID = 262
  29.590802 1  106             Tx   d 2 43 04  Length = 126000 BitCount = 66 ID = 262
  29.590936 1  106             Tx   d 2 51 04  Length = 128000 BitCount = 67 ID = 262
  29.591072 1  106             Tx   d 2 5F 04  Length = 130000 BitCount = 68 ID = 262
  29.591206 1  106             Tx   d 2 6D 04  Length = 128000 BitCount = 67 ID = 262
  29.600000    Piston       := c
  29.600168 1  104             Tx   d 4 01 00 6D 04  Length = 162000 BitCount = 84 ID = 260
  29.800000    Piston       := d
  29.800168 1  104             Tx   d 4 01 00 6D 04  Length = 162000 BitCount = 84 ID = 260
  29.920000    Acceleration_Env := 47a
  29.920000    Acceleration_Env := 496
  29.920000    Acceleration_Env := 4b2
  29.920000    Acceleration_Env := 4c0
  29.920000    Acceleration_Env := 4cd
  29.920000    Acceleration_Env := 4db
  29.920000    Acceleration_Env := 4e9
  29.920000    Acceleration_Env := 4f7
  29.920000    Acceleration_Env := 505
  29.920136 1  106             Tx   d 2 7A 04  Length = 130000 BitCount = 68 ID = 262
  29.920270 1  106             Tx   d 2 96 04  Length = 128000 BitCount = 67 ID = 262
  29.920402 1  106             Tx   d 2 B2 04  Length = 126000 BitCount = 66 ID = 262
  29.920536 1  106             Tx   d 2 C0 04  Length = 128000 BitCount = 67 ID = 262
  29.920668 1  106             Tx   d 2 CD 04  Length = 126000 BitCount = 66 ID = 262
  29.920804 1  106             Tx   d 2 DB 04  Length = 130000 BitCount = 68 ID = 262
  29.920936 1  106             Tx   d 2 E9 04  Length = 126000 BitCount = 66 ID = 262
  29.921068 1  106             Tx   d 2 F7 04  Length = 126000 BitCount = 66 ID = 262
  29.921204 1  106             Tx   d 2 05 05  Length = 130000 BitCount = 68 ID = 262
  30.000000    Piston       := e
  30.000000 1  Statistic: D 43 R 0 XD 0 XR 0 E 0 O 0 B 0.66%
  30.000170 1  104             Tx   d 4 01 00 05 05  Length = 164000 BitCount = 85 ID = 260
  30.030000    Acceleration_Env := 512
  30.030000    Acceleration_Env := 520
  30.030000    Acceleration_Env := 52e
  30.030000    Acceleration_Env := 53c
  30.030000    Acceleration_Env := 54a
  30.030000    Acceleration_Env := 557
  30.030000    Acceleration_Env := 565
  30.030000    Acceleration_Env := 573
  30.030132 1  106             Tx   d 2 12 05  Length = 126000 BitCount = 66 ID = 262
  30.030266 1  106             Tx   d 2 20 05  Length = 128000 BitCount = 67 ID = 262
  30.030398 1  106             Tx   d 2 2E 05  Length = 126000 BitCount = 66 ID = 262
  30.030532 1  106             Tx   d 2 3C 05  Length = 128000 BitCount = 67 ID = 262
  30.030666 1  106             Tx   d 2 4A 05  Length = 128000 BitCount = 67 ID = 262
  30.030798 1  106             Tx   d 2 57 05  Length = 126000 BitCount = 66 ID = 262
  30.030930 1  106             Tx   d 2 65 05  Length = 126000 BitCount = 66 ID = 262
  30.031062 1  106             Tx   d 2 73 05  Length = 126000 BitCount = 66 ID = 262
  30.140000    Acceleration_Env := 581
  30.140000    Acceleration_Env := 58f
  30.140000    Acceleration_Env := 5aa
  30.140000    Acceleration_Env := 5b8
  30.140000    Acceleration_Env := 5c6
  30.140000    Acceleration_Env := 5d4
  30.140000    Acceleration_Env := 5e2
  30.140134 1  106             Tx   d 2 81 05  Length = 128000 BitCount = 67 ID = 262
  30.140268 1  106             Tx   d 2 8F 05  Length = 128000 BitCount = 67 ID = 262
  30.140400 1  106             Tx   d 2 AA 05  Length = 126000 BitCount = 66 ID = 262
  30.140532 1  106             Tx   d 2 B8 05  Length = 126000 BitCount = 66 ID = 262
  30.140666 1  106             Tx   d 2 C6 05  Length = 128000 BitCount = 67 ID = 262
  30.140800 1  106             Tx   d 2 D4 05  Length = 128000 BitCount = 67 ID = 262
  30.140932 1  106             Tx   d 2 E2 05  Length = 126000 BitCount = 66 ID = 262
  30.200000    Piston       := f
  30.200168 1  104             Tx   d 4 01 00 E2 05  Length = 162000 BitCount = 84 ID = 260
  30.250000    Acceleration_Env := 5fd
  30.250000    Acceleration_Env := 60b
  30.250000    Acceleration_Env := 627
  30.250134 1  106             Tx   d 2 FD 05  Length = 128000 BitCount = 67 ID = 262
  30.250268 1  106             Tx   d 2 0B 06  Length = 128000 BitCount = 67 ID = 262
  30.250402 1  106             Tx   d 2 27 06  Length = 128000 BitCount = 67 ID = 262
  30.360000    Acceleration_Env := 634
  30.360000    Acceleration_Env := 650
  30.360000    Acceleration_Env := 65e
  30.360000    Acceleration_Env := 67a
  30.360000    Acceleration_Env := 687
  30.360000    Acceleration_Env := 695
  30.360000    Acceleration_Env := 6a3
  30.360000    Acceleration_Env := 6b1
  30.360132 1  106             Tx   d 2 34 06  Length = 126000 BitCount = 66 ID = 262
  30.360264 1  106             Tx   d 2 50 06  Length = 126000 BitCount = 66 ID = 262
  30.360396 1  106             Tx   d 2 5E 06  Length = 126000 BitCount = 66 ID = 262
  30.360528 1  106             Tx   d 2 7A 06  Length = 126000 BitCount = 66 ID = 262
  30.360660 1  106             Tx   d 2 87 06  Length = 126000 BitCount = 66 ID = 262
  30.360792 1  106             Tx   d 2 95 06  Length = 126000 BitCount = 66 ID = 262
  30.360926 1  106             Tx   d 2 A3 06  Length = 128000 BitCount = 67 ID = 262
  30.361060 1  106             Tx   d 2 B1 06  Length = 128000 BitCount = 67 ID = 262
  30.400000    Piston       := 10
  30.400170 1  104             Tx   d 4 01 00 B1 06  Length = 164000 BitCount = 85 ID = 260
  30.470000    Acceleration_Env := 6cc
  30.470000    Acceleration_Env := 6da
  30.470000    Acceleration_Env := 6e8
  30.470000    Acceleration_Env := 6f6
  30.470000    Acceleration_Env := 704
  30.470000    Acceleration_Env := 71f
  30.470134 1  106             Tx   d 2 CC 06  Length = 128000 BitCount = 67 ID = 262
  30.470268 1  106             Tx   d 2 DA 06  Length = 128000 BitCount = 67 ID = 262
  30.470400 1  106             Tx   d 2 E8 06  Length = 126000 BitCount = 66 ID = 262
  30.470532 1  106             Tx   d 2 F6 06  Length = 126000 BitCount = 66 ID = 262
  30.470668 1  106             Tx   d 2 04 07  Length = 130000 BitCount = 68 ID = 262
  30.470804 1  106             Tx   d 2 1F 07  Length = 130000 BitCount = 68 ID = 262
  30.580000    Acceleration_Env := 72d
  30.580000    Acceleration_Env := 749
  30.580000    Acceleration_Env := 756
  30.580000    Acceleration_Env := 772
  30.580000    Acceleration_Env := 780
  30.580000    Acceleration_Env := 79c
  30.580000    Acceleration_Env := 7a9
  30.580000    Acceleration_Env := 7b7
  30.580000    Acceleration_Env := 7c5
  30.580000    Acceleration_Env := 7d3
  30.580134 1  106             Tx   d 2 2D 07  Length = 128000 BitCount = 67 ID = 262
  30.580268 1  106             Tx   d 2 49 07  Length = 128000 BitCount = 67 ID = 262
  30.580402 1  106             Tx   d 2 56 07  Length = 128000 BitCount = 67 ID = 262
  30.580536 1  106             Tx   d 2 72 07  Length = 128000 BitCount = 67 ID = 262
  30.580670 1  106             Tx   d 2 80 07  Length = 128000 BitCount = 67 ID = 262
  30.580802 1  106             Tx   d 2 9C 07  Length = 126000 BitCount = 66 ID = 262
  30.580936 1  106             Tx   d 2 A9 07  Length = 128000 BitCount = 67 ID = 262
  30.581070 1  106             Tx   d 2 B7 07  Length = 128000 BitCount = 67 ID = 262
  30.581204 1  106             Tx   d 2 C5 07  Length = 128000 BitCount = 67 ID = 262
  30.581338 1  106             Tx   d 2 D3 07  Length = 128000 BitCount = 67 ID = 262
  30.600000    Piston       := 0
  30.600170 1  104             Tx   d 4 01 00 D3 07  Length = 164000 BitCount = 85 ID = 260
  30.690000    Acceleration_Env := 7ee
  30.690000    Acceleration_Env := 7fc
  30.690000    Acceleration_Env := 818
  30.690000    Acceleration_Env := 826
  30.690000    Acceleration_Env := 834
  30.690000    Acceleration_Env := 841
  30.690132 1  106             Tx   d 2 EE 07  Length = 126000 BitCount = 66 ID = 262
  30.690268 1  106             Tx   d 2 FC 07  Length = 130000 BitCount = 68 ID = 262
  30.690402 1  106             Tx   d 2 18 08  Length = 128000 BitCount = 67 ID = 262
  30.690536 1  106             Tx   d 2 26 08  Length = 128000 BitCount = 67 ID = 262
  30.690668 1  106             Tx   d 2 34 08  Length = 126000 BitCount = 66 ID = 262
  30.690802 1  106             Tx   d 2 41 08  Length = 128000 BitCount = 67 ID = 262
  30.800000    Piston       := 1
  30.800000    Acceleration_Env := 84f
  30.800000    Acceleration_Env := 85d
  30.800000    Acceleration_Env := 879
  30.800000    Acceleration_Env := 894
  30.800170 1  104             Tx   d 4 01 00 41 08  Length = 164000 BitCount = 85 ID = 260
  30.800300 1  106             Tx   d 2 4F 08  Length = 124000 BitCount = 65 ID = 262
  30.800432 1  106             Tx   d 2 5D 08  Length = 126000 BitCount = 66 ID = 262
  30.800564 1  106             Tx   d 2 79 08  Length = 126000 BitCount = 66 ID = 262
  30.800698 1  106             Tx   d 2 94 08  Length = 128000 BitCount = 67 ID = 262
  30.910000    Acceleration_Env := 8a2
  30.910132 1  106             Tx   d 2 A2 08  Length = 126000 BitCount = 66 ID = 262
  31.000000    Piston       := 2
  31.000000 1  Statistic: D 58 R 0 XD 0 XR 0 E 0 O 0 B 0.89%
  31.000170 1  104             Tx   d 4 01 00 A2 08  Length = 164000 BitCount = 85 ID = 260
  31.200000    Piston       := 3
  31.200170 1  104             Tx   d 4 01 00 A2 08  Length = 164000 BitCount = 85 ID = 260
  31.400000    Piston       := 4
  31.400170 1  104             Tx   d 4 01 00 A2 08  Length = 164000 BitCount = 85 ID = 260
  31.600000    Piston       := 5
  31.600170 1  104             Tx   d 4 01 00 A2 08  Length = 164000 BitCount = 85 ID = 260
  31.800000    Piston       := 6
  31.800170 1  104             Tx   d 4 01 00 A2 08  Length = 164000 BitCount = 85 ID = 260
  32.000000    Piston       := 7
  32.000000 1  Statistic: D 5 R 0 XD 0 XR 0 E 0 O 0 B 0.09%
  32.000170 1  104             Tx   d 4 01 00 A2 08  Length = 164000 BitCount = 85 ID = 260
  32.200000    Piston       := 8
  32.200170 1  104             Tx   d 4 01 00 A2 08  Length = 164000 BitCount = 85 ID = 260
  32.400000    Piston       := 9
  32.400170 1  104             Tx   d 4 01 00 A2 08  Length = 164000 BitCount = 85 ID = 260
  32.450000    Acceleration_Env := 894
  32.450000    Acceleration_Env := 879
  32.450000    Acceleration_Env := 85d
  32.450000    Acceleration_Env := 84f
  32.450000    Acceleration_Env := 834
  32.450000    Acceleration_Env := 826
  32.450000    Acceleration_Env := 80a
  32.450000    Acceleration_Env := 7fc
  32.450000    Acceleration_Env := 7e1
  32.450000    Acceleration_Env := 7d3
  32.450000    Acceleration_Env := 7c5
  32.450000    Acceleration_Env := 7b7
  32.450134 1  106             Tx   d 2 94 08  Length = 128000 BitCount = 67 ID = 262
  32.450266 1  106             Tx   d 2 79 08  Length = 126000 BitCount = 66 ID = 262
  32.450398 1  106             Tx   d 2 5D 08  Length = 126000 BitCount = 66 ID = 262
  32.450528 1  106             Tx   d 2 4F 08  Length = 124000 BitCount = 65 ID = 262
  32.450660 1  106             Tx   d 2 34 08  Length = 126000 BitCount = 66 ID = 262
  32.450794 1  106             Tx   d 2 26 08  Length = 128000 BitCount = 67 ID = 262
  32.450930 1  106             Tx   d 2 0A 08  Length = 130000 BitCount = 68 ID = 262
  32.451066 1  106             Tx   d 2 FC 07  Length = 130000 BitCount = 68 ID = 262
  32.451200 1  106             Tx   d 2 E1 07  Length = 128000 BitCount = 67 ID = 262
  32.451334 1  106             Tx   d 2 D3 07  Length = 128000 BitCount = 67 ID = 262
  32.451468 1  106             Tx   d 2 C5 07  Length = 128000 BitCount = 67 ID = 262
  32.451602 1  106             Tx   d 2 B7 07  Length = 128000 BitCount = 67 ID = 262
  32.560000    Acceleration_Env := 7a9
  32.560000    Acceleration_Env := 78e
  32.560000    Acceleration_Env := 780
  32.560000    Acceleration_Env := 764
  32.560000    Acceleration_Env := 756
  32.560000    Acceleration_Env := 749
  32.560000    Acceleration_Env := 72d
  32.560000    Acceleration_Env := 71f
  32.560000    Acceleration_Env := 711
  32.560000    Acceleration_Env := 704
  32.560000    Acceleration_Env := 6e8
  32.560134 1  106             Tx   d 2 A9 07  Length = 128000 BitCount = 67 ID = 262
  32.560266 1  106             Tx   d 2 8E 07  Length = 126000 BitCount = 66 ID = 262
  32.560400 1  106             Tx   d 2 80 07  Length = 128000 BitCount = 67 ID = 262
  32.560532 1  106             Tx   d 2 64 07  Length = 126000 BitCount = 66 ID = 262
  32.560666 1  106             Tx   d 2 56 07  Length = 128000 BitCount = 67 ID = 262
  32.560800 1  106             Tx   d 2 49 07  Length = 128000 BitCount = 67 ID = 262
  32.560934 1  106             Tx   d 2 2D 07  Length = 128000 BitCount = 67 ID = 262
  32.561070 1  106             Tx   d 2 1F 07  Length = 130000 BitCount = 68 ID = 262
  32.561202 1  106             Tx   d 2 11 07  Length = 126000 BitCount = 66 ID = 262
  32.561338 1  106             Tx   d 2 04 07  Length = 130000 BitCount = 68 ID = 262
  32.561470 1  106             Tx   d 2 E8 06  Length = 126000 BitCount = 66 ID = 262
  32.600000    Piston       := a
  32.600168 1  104             Tx   d 4 01 00 E8 06  Length = 162000 BitCount = 84 ID = 260
  32.670000    Acceleration_Env := 6da
  32.670000    Acceleration_Env := 6a3
  32.670000    Acceleration_Env := 687
  32.670000    Acceleration_Env := 66c
  32.670000    Acceleration_Env := 642
  32.670000    Acceleration_Env := 627
  32.670000    Acceleration_Env := 60b
  32.670000    Acceleration_Env := 5ef
  32.670000    Acceleration_Env := 5e2
  32.670000    Acceleration_Env := 5c6
  32.670000    Acceleration_Env := 5b8
  32.670134 1  106             Tx   d 2 DA 06  Length = 128000 BitCount = 67 ID = 262
  32.670268 1  106             Tx   d 2 A3 06  Length = 128000 BitCount = 67 ID = 262
  32.670400 1  106             Tx   d 2 87 06  Length = 126000 BitCount = 66 ID = 262
  32.670532 1  106             Tx   d 2 6C 06  Length = 126000 BitCount = 66 ID = 262
  32.670666 1  106             Tx   d 2 42 06  Length = 128000 BitCount = 67 ID = 262
  32.670800 1  106             Tx   d 2 27 06  Length = 128000 BitCount = 67 ID = 262
  32.670934 1  106             Tx   d 2 0B 06  Length = 128000 BitCount = 67 ID = 262
  32.671066 1  106             Tx   d 2 EF 05  Length = 126000 BitCount = 66 ID = 262
  32.671198 1  106             Tx   d 2 E2 05  Length = 126000 BitCount = 66 ID = 262
  32.671332 1  106             Tx   d 2 C6 05  Length = 128000 BitCount = 67 ID = 262
  32.671464 1  106             Tx   d 2 B8 05  Length = 126000 BitCount = 66 ID = 262
  32.800000    Piston       := b
  32.800168 1  104             Tx   d 4 01 00 B8 05  Length = 162000 BitCount = 84 ID = 260
  33.000000    Piston       := c
  33.000000 1  Statistic: D 39 R 0 XD 0 XR 0 E 0 O 0 B 0.60%
  33.000168 1  104             Tx   d 4 01 00 B8 05  Length = 162000 BitCount = 84 ID = 260
  33.200000    Piston       := d
  33.200168 1  104             Tx   d 4 01 00 B8 05  Length = 162000 BitCount = 84 ID = 260
  33.400000    Piston       := e
  33.400168 1  104             Tx   d 4 01 00 B8 05  Length = 162000 BitCount = 84 ID = 260
  33.440000    SV: 2 0 0 ::PowerTrain::Brake = 1
  33.440116 1  105             Tx   d 1 01  Length = 110000 BitCount = 58 ID = 261
  33.550000    SV: 2 0 0 ::PowerTrain::Brake = 0
  33.550116 1  105             Tx   d 1 00  Length = 110000 BitCount = 58 ID = 261
  33.600000    Piston       := f
  33.600174 1  104             Tx   d 4 01 00 00 00  Length = 168000 BitCount = 87 ID = 260
  33.800000    Piston       := 10
  33.800174 1  104             Tx   d 4 01 00 00 00  Length = 168000 BitCount = 87 ID = 260
  34.000000    Piston       := 0
  34.000000 1  Statistic: D 7 R 0 XD 0 XR 0 E 0 O 0 B 0.11%
  34.000174 1  104             Tx   d 4 01 00 00 00  Length = 168000 BitCount = 87 ID = 260
  34.100000    SV: 2 0 0 ::PowerTrain::Brake = 1
  34.100116 1  105             Tx   d 1 01  Length = 110000 BitCount = 58 ID = 261
  34.200000    Piston       := 1
  34.200174 1  104             Tx   d 4 01 00 00 00  Length = 168000 BitCount = 87 ID = 260
  34.320000    SV: 2 0 0 ::PowerTrain::Brake = 0
  34.320116 1  105             Tx   d 1 00  Length = 110000 BitCount = 58 ID = 261
  34.400000    Piston       := 2
  34.400174 1  104             Tx   d 4 01 00 00 00  Length = 168000 BitCount = 87 ID = 260
  34.600000    Piston       := 3
  34.600174 1  104             Tx   d 4 01 00 00 00  Length = 168000 BitCount = 87 ID = 260
  34.800000    Piston       := 4
  34.800174 1  104             Tx   d 4 01 00 00 00  Length = 168000 BitCount = 87 ID = 260
  35.000000    Piston       := 5
  35.000000 1  Statistic: D 7 R 0 XD 0 XR 0 E 0 O 0 B 0.11%
  35.000174 1  104             Tx   d 4 01 00 00 00  Length = 168000 BitCount = 87 ID = 260
  35.200000    Piston       := 6
  35.200174 1  104             Tx   d 4 01 00 00 00  Length = 168000 BitCount = 87 ID = 260
  35.400000    Piston       := 7
  35.400174 1  104             Tx   d 4 01 00 00 00  Length = 168000 BitCount = 87 ID = 260
  35.600000    Piston       := 8
  35.600174 1  104             Tx   d 4 01 00 00 00  Length = 168000 BitCount = 87 ID = 260
  35.800000    Piston       := 9
  35.800174 1  104             Tx   d 4 01 00 00 00  Length = 168000 BitCount = 87 ID = 260
  36.000000    Piston       := a
  36.000000 1  Statistic: D 5 R 0 XD 0 XR 0 E 0 O 0 B 0.09%
  36.000174 1  104             Tx   d 4 01 00 00 00  Length = 168000 BitCount = 87 ID = 260
End TriggerBlock
